X--Trace 1::[Channel A],Y--Trace 1::[Channel A],Y--Trace 2::[Channel B]
0,0,-2.46716E-19
1E-07,0.000639775,-2.46872E-19
2E-07,0.00127955,4.35229E-13
4E-07,0.0025591,2.61139E-12
7.59541E-07,0.00485936,1.70258E-11
1.10321E-06,0.00705809,5.05699E-11
1.71753E-06,0.0109883,1.89855E-10
2.53897E-06,0.0162437,6.099E-10
3.86152E-06,0.024705,2.14774E-09
5.75032E-06,0.0367891,7.08577E-09
8.67882E-06,0.0555249,2.44183E-08
1.29669E-05,0.0829587,8.16861E-08
1.94695E-05,0.12456,2.78897E-07
2.90149E-05,0.185626,9.39538E-07
3.90149E-05,0.249598,2.32551E-06
4.90149E-05,0.313567,4.73064E-06
5.90149E-05,0.377531,8.53792E-06
6.90149E-05,0.44149,1.42191E-05
7.90149E-05,0.505443,2.23574E-05
8.90149E-05,0.569388,3.36701E-05
9.90149E-05,0.633325,4.903E-05
0.000109015,0.697254,6.9482E-05
0.000119015,0.761172,9.62522E-05
0.000129015,0.82508,0.000130746
0.000139015,0.888975,0.000174532
0.000149015,0.952859,0.000229316
0.000159015,1.01673,0.0002969
0.000169015,1.08058,0.000379137
0.000179015,1.14442,0.000477888
0.000189015,1.20825,0.00059498
0.000199015,1.27205,0.000732169
0.000209015,1.33584,0.00089112
0.000219015,1.39961,0.00107339
0.000229015,1.46336,0.00128041
0.000239015,1.52709,0.00151351
0.000249015,1.5908,0.0017739
0.000259015,1.65448,0.00206267
0.000269015,1.71814,0.00238081
0.000279015,1.78178,0.00272924
0.000289015,1.84539,0.00310876
0.000299015,1.90897,0.00352011
0.000309015,1.97253,0.00396397
0.000319015,2.03606,0.00444094
0.000329015,2.09956,0.00495157
0.000339015,2.16303,0.00549636
0.000349015,2.22647,0.00607576
0.000359015,2.28988,0.00669019
0.000369015,2.35326,0.00734003
0.000379015,2.4166,0.00802562
0.000389015,2.47991,0.00874727
0.000399015,2.54318,0.00950527
0.000409015,2.60642,0.0102999
0.000419015,2.66962,0.0111313
0.000429015,2.73278,0.0119999
0.000439015,2.7959,0.0129057
0.000449015,2.85899,0.0138489
0.000459015,2.92203,0.0148298
0.000469015,2.98503,0.0158485
0.000479015,3.04799,0.016905
0.000489015,3.1109,0.0179996
0.000499015,3.17378,0.0191324
0.000509015,3.2366,0.0203035
0.000519015,3.29938,0.0215129
0.000529015,3.36211,0.0227608
0.000539015,3.4248,0.0240472
0.000549015,3.48744,0.0253722
0.000559015,3.55002,0.0267358
0.000569015,3.61256,0.0281382
0.000579015,3.67505,0.0295794
0.000589015,3.73748,0.0310594
0.000599015,3.79986,0.0325783
0.000609015,3.86218,0.0341361
0.000619015,3.92446,0.0357328
0.000629015,3.98667,0.0373685
0.000639015,4.04883,0.0390431
0.000649015,4.11093,0.0407567
0.000659015,4.17297,0.0425093
0.000669015,4.23496,0.044301
0.000679015,4.29688,0.0461316
0.000689015,4.35874,0.0480013
0.000699015,4.42054,0.0499099
0.000709015,4.48228,0.0518576
0.000719015,4.54395,0.0538443
0.000729015,4.60556,0.0558699
0.000739015,4.66711,0.0579345
0.000749015,4.72858,0.0600381
0.000759015,4.78999,0.0621806
0.000769015,4.85134,0.064362
0.000779015,4.91261,0.0665823
0.000789015,4.97381,0.0688415
0.000799015,5.03494,0.0711394
0.000809015,5.09601,0.0734762
0.000819015,5.15699,0.0758518
0.000829015,5.21791,0.078266
0.000839015,5.27875,0.080719
0.000849015,5.33952,0.0832106
0.000859015,5.40021,0.0857409
0.000869015,5.46082,0.0883097
0.000879015,5.52136,0.090917
0.000889015,5.58181,0.0935628
0.000899015,5.64219,0.096247
0.000909015,5.70249,0.0989696
0.000919015,5.76271,0.101731
0.000929015,5.82284,0.10453
0.000939015,5.88289,0.107367
0.000949015,5.94286,0.110243
0.000959015,6.00275,0.113157
0.000969015,6.06254,0.116108
0.000979015,6.12226,0.119098
0.000989015,6.18188,0.122126
0.000999015,6.24142,0.125191
0.00100901,6.30087,0.128295
0.00101901,6.36023,0.131436
0.00102901,6.4195,0.134615
0.00103901,6.47868,0.137831
0.00104901,6.53776,0.141085
0.00105901,6.59675,0.144377
0.00106901,6.65565,0.147705
0.00107901,6.71446,0.151072
0.00108901,6.77317,0.154475
0.00109901,6.83178,0.157916
0.00110901,6.8903,0.161393
0.00111901,6.94871,0.164908
0.00112901,7.00703,0.16846
0.00113901,7.06525,0.172049
0.00114901,7.12337,0.175674
0.00115901,7.18139,0.179336
0.00116901,7.2393,0.183035
0.00117901,7.29712,0.186771
0.00118901,7.35483,0.190543
0.00119901,7.41243,0.194351
0.00120901,7.46993,0.198196
0.00121901,7.52732,0.202077
0.00122901,7.58461,0.205994
0.00123901,7.64179,0.209947
0.00124901,7.69886,0.213936
0.00125901,7.75582,0.217961
0.00126901,7.81267,0.222022
0.00127901,7.86941,0.226118
0.00128901,7.92603,0.230251
0.00129901,7.98255,0.234418
0.00130901,8.03895,0.238621
0.00131901,8.09524,0.24286
0.00132901,8.15141,0.247134
0.00133901,8.20747,0.251443
0.00134901,8.2634,0.255787
0.00135901,8.31923,0.260166
0.00136901,8.37493,0.26458
0.00137901,8.43051,0.269028
0.00138901,8.48598,0.273512
0.00139901,8.54132,0.27803
0.00140901,8.59655,0.282582
0.00141901,8.65165,0.287169
0.00142901,8.70662,0.29179
0.00143901,8.76148,0.296446
0.00144901,8.81621,0.301135
0.00145901,8.87081,0.305859
0.00146901,8.92529,0.310616
0.00147901,8.97964,0.315407
0.00148901,9.03386,0.320232
0.00149901,9.08796,0.32509
0.00150901,9.14193,0.329982
0.00151901,9.19576,0.334907
0.00152901,9.24947,0.339866
0.00153901,9.30304,0.344858
0.00154901,9.35648,0.349882
0.00155901,9.40979,0.35494
0.00156901,9.46297,0.36003
0.00157901,9.51601,0.365154
0.00158901,9.56891,0.37031
0.00159901,9.62168,0.375498
0.00160901,9.67431,0.380719
0.00161901,9.72681,0.385972
0.00162901,9.77917,0.391257
0.00163901,9.83138,0.396574
0.00164901,9.88346,0.401923
0.00165901,9.9354,0.407304
0.00166901,9.9872,0.412717
0.00167901,10.0389,0.418161
0.00168901,10.0904,0.423637
0.00169901,10.1417,0.429144
0.00170901,10.193,0.434683
0.00171901,10.244,0.440252
0.00172901,10.295,0.445853
0.00173901,10.3458,0.451484
0.00174901,10.3964,0.457146
0.00175901,10.4469,0.462839
0.00176901,10.4972,0.468563
0.00177901,10.5474,0.474317
0.00178901,10.5975,0.480101
0.00179901,10.6474,0.485915
0.00180901,10.6971,0.49176
0.00181901,10.7467,0.497634
0.00182901,10.7961,0.503538
0.00183901,10.8454,0.509472
0.00184901,10.8946,0.515435
0.00185901,10.9435,0.521428
0.00186901,10.9924,0.52745
0.00187901,11.041,0.533502
0.00188901,11.0895,0.539582
0.00189901,11.1379,0.545692
0.00190901,11.1861,0.55183
0.00191901,11.2341,0.557997
0.00192901,11.282,0.564192
0.00193901,11.3297,0.570416
0.00194901,11.3772,0.576668
0.00195901,11.4246,0.582949
0.00196901,11.4719,0.589257
0.00197901,11.5189,0.595594
0.00198901,11.5658,0.601958
0.00199901,11.6126,0.60835
0.00200901,11.6591,0.614769
0.00201901,11.7055,0.621216
0.00202901,11.7518,0.62769
0.00203901,11.7978,0.634191
0.00204901,11.8437,0.640719
0.00205901,11.8895,0.647274
0.00206901,11.9351,0.653856
0.00207901,11.9804,0.660464
0.00208901,12.0257,0.667099
0.00209901,12.0707,0.67376
0.00210901,12.1156,0.680447
0.00211901,12.1603,0.687161
0.00212901,12.2049,0.6939
0.00213901,12.2492,0.700665
0.00214901,12.2934,0.707456
0.00215901,12.3374,0.714272
0.00216901,12.3813,0.721114
0.00217901,12.425,0.727981
0.00218901,12.4684,0.734873
0.00219901,12.5118,0.74179
0.00220901,12.5549,0.748731
0.00221901,12.5978,0.755698
0.00222901,12.6406,0.762689
0.00223901,12.6832,0.769704
0.00224901,12.7256,0.776744
0.00225901,12.7679,0.783808
0.00226901,12.8099,0.790896
0.00227901,12.8518,0.798007
0.00228901,12.8935,0.805143
0.00229901,12.935,0.812302
0.00230901,12.9763,0.819484
0.00231901,13.0175,0.826689
0.00232901,13.0584,0.833918
0.00233901,13.0992,0.84117
0.00234901,13.1398,0.848445
0.00235901,13.1802,0.855742
0.00236901,13.2204,0.863062
0.00237901,13.2604,0.870404
0.00238901,13.3002,0.877768
0.00239901,13.3399,0.885155
0.00240901,13.3793,0.892564
0.00241901,13.4186,0.899994
0.00242901,13.4576,0.907446
0.00243901,13.4965,0.91492
0.00244901,13.5352,0.922415
0.00245901,13.5737,0.929931
0.00246901,13.612,0.937469
0.00247901,13.6501,0.945027
0.00248901,13.688,0.952606
0.00249901,13.7258,0.960206
0.00250901,13.7633,0.967826
0.00251901,13.8006,0.975467
0.00252901,13.8378,0.983128
0.00253901,13.8747,0.990809
0.00254901,13.9114,0.998509
0.00255901,13.948,1.00623
0.00256901,13.9843,1.01397
0.00257901,14.0205,1.02173
0.00258901,14.0564,1.02951
0.00259901,14.0922,1.03731
0.00260901,14.1277,1.04512
0.00261901,14.1631,1.05296
0.00262901,14.1982,1.06081
0.00263901,14.2332,1.06869
0.00264901,14.2679,1.07658
0.00265901,14.3024,1.08449
0.00266901,14.3368,1.09242
0.00267901,14.3709,1.10036
0.00268901,14.4048,1.10833
0.00269901,14.4385,1.11631
0.00270901,14.4721,1.12431
0.00271901,14.5054,1.13232
0.00272901,14.5385,1.14035
0.00273901,14.5714,1.1484
0.00274901,14.6041,1.15647
0.00275901,14.6366,1.16456
0.00276901,14.6688,1.17266
0.00277901,14.7009,1.18077
0.00278901,14.7328,1.1889
0.00279901,14.7644,1.19705
0.00280901,14.7958,1.20522
0.00281901,14.8271,1.2134
0.00282901,14.8581,1.22159
0.00283901,14.8889,1.22981
0.00284901,14.9195,1.23803
0.00285901,14.9499,1.24628
0.00286901,14.98,1.25453
0.00287901,15.01,1.2628
0.00288901,15.0397,1.27109
0.00289901,15.0693,1.27939
0.00290901,15.0986,1.28771
0.00291901,15.1277,1.29604
0.00292901,15.1566,1.30438
0.00293901,15.1853,1.31274
0.00294901,15.2137,1.32111
0.00295901,15.242,1.32949
0.00296901,15.27,1.33789
0.00297901,15.2978,1.3463
0.00298901,15.3254,1.35473
0.00299901,15.3527,1.36316
0.00300901,15.3799,1.37161
0.00301901,15.4068,1.38007
0.00302901,15.4335,1.38855
0.00303901,15.46,1.39704
0.00304901,15.4863,1.40554
0.00305901,15.5124,1.41405
0.00306901,15.5382,1.42257
0.00307901,15.5638,1.4311
0.00308901,15.5892,1.43965
0.00309901,15.6144,1.44821
0.00310901,15.6393,1.45678
0.00311901,15.6641,1.46535
0.00312901,15.6886,1.47395
0.00313901,15.7128,1.48255
0.00314901,15.7369,1.49116
0.00315901,15.7607,1.49978
0.00316901,15.7844,1.50841
0.00317901,15.8077,1.51705
0.00318901,15.8309,1.5257
0.00319901,15.8538,1.53436
0.00320901,15.8766,1.54304
0.00321901,15.899,1.55172
0.00322901,15.9213,1.5604
0.00323901,15.9433,1.5691
0.00324901,15.9651,1.57781
0.00325901,15.9867,1.58653
0.00326901,16.0081,1.59525
0.00327901,16.0292,1.60398
0.00328901,16.0501,1.61272
0.00329901,16.0708,1.62147
0.00330901,16.0912,1.63023
0.00331901,16.1114,1.63899
0.00332901,16.1314,1.64777
0.00333901,16.1512,1.65655
0.00334901,16.1707,1.66533
0.00335901,16.19,1.67413
0.00336901,16.209,1.68293
0.00337901,16.2279,1.69173
0.00338901,16.2465,1.70055
0.00339901,16.2649,1.70937
0.00340901,16.283,1.71819
0.00341901,16.3009,1.72703
0.00342901,16.3186,1.73586
0.00343901,16.336,1.74471
0.00344901,16.3532,1.75356
0.00345901,16.3702,1.76241
0.00346901,16.387,1.77127
0.00347901,16.4035,1.78014
0.00348901,16.4198,1.78901
0.00349901,16.4358,1.79788
0.00350901,16.4516,1.80676
0.00351901,16.4672,1.81565
0.00352901,16.4826,1.82453
0.00353901,16.4977,1.83343
0.00354901,16.5126,1.84232
0.00355901,16.5272,1.85122
0.00356901,16.5416,1.86013
0.00357901,16.5558,1.86903
0.00358901,16.5697,1.87794
0.00359901,16.5835,1.88685
0.00360901,16.5969,1.89577
0.00361901,16.6102,1.90469
0.00362901,16.6232,1.91361
0.00363901,16.6359,1.92253
0.00364901,16.6484,1.93146
0.00365901,16.6607,1.94039
0.00366901,16.6728,1.94932
0.00367901,16.6846,1.95825
0.00368901,16.6962,1.96718
0.00369901,16.7075,1.97612
0.00370901,16.7186,1.98505
0.00371901,16.7295,1.99399
0.00372901,16.7401,2.00293
0.00373901,16.7505,2.01187
0.00374901,16.7606,2.02081
0.00375901,16.7706,2.02975
0.00376901,16.7802,2.03869
0.00377901,16.7897,2.04763
0.00378901,16.7989,2.05657
0.00379901,16.8078,2.0655
0.00380901,16.8165,2.07444
0.00381901,16.825,2.08338
0.00382901,16.8333,2.09232
0.00383901,16.8413,2.10126
0.00384901,16.849,2.11019
0.00385901,16.8565,2.11913
0.00386901,16.8638,2.12806
0.00387901,16.8709,2.13699
0.00388901,16.8777,2.14592
0.00389901,16.8842,2.15485
0.00390901,16.8906,2.16378
0.00391901,16.8967,2.1727
0.00392901,16.9025,2.18162
0.00393901,16.9081,2.19054
0.00394901,16.9135,2.19946
0.00395901,16.9186,2.20837
0.00396901,16.9235,2.21728
0.00397901,16.9281,2.22619
0.00398901,16.9325,2.23509
0.00399901,16.9367,2.24399
0.00400901,16.9406,2.25289
0.00401901,16.9443,2.26178
0.00402901,16.9477,2.27067
0.00403901,16.9509,2.27955
0.00404901,16.9539,2.28843
0.00405901,16.9566,2.29731
0.00406901,16.9591,2.30618
0.00407901,16.9613,2.31504
0.00408901,16.9633,2.3239
0.00409901,16.965,2.33276
0.00410901,16.9666,2.34161
0.00411901,16.9678,2.35045
0.00412901,16.9689,2.35929
0.00413901,16.9696,2.36813
0.00414901,16.9702,2.37695
0.00415901,16.9705,2.38577
0.00416901,16.9706,2.39459
0.00417901,16.9704,2.4034
0.00418901,16.97,2.4122
0.00419901,16.9693,2.42099
0.00420901,16.9684,2.42978
0.00421901,16.9673,2.43856
0.00422901,16.9659,2.44733
0.00423901,16.9643,2.4561
0.00424901,16.9624,2.46486
0.00425901,16.9603,2.47361
0.00426901,16.9579,2.48235
0.00427901,16.9553,2.49108
0.00428901,16.9525,2.49981
0.00429901,16.9494,2.50853
0.00430901,16.9461,2.51724
0.00431901,16.9426,2.52594
0.00432901,16.9388,2.53463
0.00433901,16.9348,2.54331
0.00434901,16.9305,2.55198
0.00435901,16.926,2.56064
0.00436901,16.9212,2.5693
0.00437901,16.9162,2.57794
0.00438901,16.911,2.58658
0.00439901,16.9055,2.5952
0.00440901,16.8998,2.60381
0.00441901,16.8938,2.61242
0.00442901,16.8876,2.62101
0.00443901,16.8812,2.62959
0.00444901,16.8745,2.63817
0.00445901,16.8676,2.64673
0.00446901,16.8604,2.65528
0.00447901,16.853,2.66381
0.00448901,16.8454,2.67234
0.00449901,16.8375,2.68086
0.00450901,16.8294,2.68936
0.00451901,16.8211,2.69785
0.00452901,16.8125,2.70633
0.00453901,16.8036,2.7148
0.00454901,16.7946,2.72325
0.00455901,16.7853,2.73169
0.00456901,16.7757,2.74012
0.00457901,16.7659,2.74854
0.00458901,16.7559,2.75694
0.00459901,16.7456,2.76533
0.00460901,16.7351,2.77371
0.00461901,16.7244,2.78207
0.00462901,16.7134,2.79042
0.00463901,16.7022,2.79876
0.00464901,16.6908,2.80708
0.00465901,16.6791,2.81539
0.00466901,16.6671,2.82368
0.00467901,16.655,2.83196
0.00468901,16.6426,2.84022
0.00469901,16.6299,2.84847
0.00470901,16.6171,2.85671
0.00471901,16.604,2.86493
0.00472901,16.5906,2.87313
0.00473901,16.577,2.88132
0.00474901,16.5632,2.8895
0.00475901,16.5492,2.89765
0.00476901,16.5349,2.9058
0.00477901,16.5204,2.91392
0.00478901,16.5056,2.92203
0.00479901,16.4906,2.93013
0.00480901,16.4754,2.9382
0.00481901,16.4599,2.94627
0.00482901,16.4443,2.95431
0.00483901,16.4283,2.96234
0.00484901,16.4122,2.97035
0.00485901,16.3958,2.97834
0.00486901,16.3791,2.98632
0.00487901,16.3623,2.99428
0.00488901,16.3452,3.00222
0.00489901,16.3279,3.01014
0.00490901,16.3103,3.01805
0.00491901,16.2925,3.02593
0.00492901,16.2745,3.0338
0.00493901,16.2563,3.04165
0.00494901,16.2378,3.04949
0.00495901,16.2191,3.0573
0.00496901,16.2001,3.06509
0.00497901,16.1809,3.07287
0.00498901,16.1615,3.08063
0.00499901,16.1419,3.08837
0.00500901,16.122,3.09608
0.00501901,16.102,3.10378
0.00502901,16.0816,3.11146
0.00503901,16.0611,3.11912
0.00504901,16.0403,3.12676
0.00505901,16.0193,3.13438
0.00506901,15.9981,3.14198
0.00507901,15.9766,3.14956
0.00508901,15.9549,3.15712
0.00509901,15.933,3.16466
0.00510901,15.9109,3.17217
0.00511901,15.8885,3.17967
0.00512901,15.8659,3.18714
0.00513901,15.8431,3.19459
0.00514901,15.8201,3.20203
0.00515901,15.7968,3.20943
0.00516901,15.7733,3.21682
0.00517901,15.7496,3.22418
0.00518901,15.7256,3.23152
0.00519901,15.7015,3.23884
0.00520901,15.6771,3.24612
0.00521901,15.6525,3.25339
0.00522901,15.6276,3.26062
0.00523901,15.6026,3.26783
0.00524901,15.5773,3.275
0.00525901,15.5518,3.28214
0.00526901,15.5261,3.28924
0.00527901,15.5002,3.2963
0.00528901,15.474,3.30332
0.00529901,15.4476,3.31028
0.00530901,15.421,3.31718
0.00531901,15.3942,3.32401
0.00532901,15.3672,3.33077
0.00533901,15.3399,3.33745
0.00534901,15.3124,3.34403
0.00535901,15.2847,3.35051
0.00536901,15.2568,3.35688
0.00537901,15.2287,3.36314
0.00538901,15.2004,3.36926
0.00539901,15.1718,3.37526
0.00540901,15.143,3.38112
0.00541901,15.1141,3.38684
0.00542901,15.0849,3.39241
0.00543901,15.0554,3.39783
0.00544901,15.0258,3.40311
0.00545901,14.996,3.40823
0.00546901,14.9659,3.41321
0.00547901,14.9356,3.41803
0.00548901,14.9051,3.4227
0.00549901,14.8745,3.42723
0.00550901,14.8435,3.43161
0.00551901,14.8124,3.43584
0.00552901,14.7811,3.43993
0.00553901,14.7496,3.44388
0.00554901,14.7178,3.44769
0.00555901,14.6859,3.45136
0.00556901,14.6537,3.45491
0.00557901,14.6213,3.45832
0.00558901,14.5887,3.4616
0.00559901,14.556,3.46476
0.00560901,14.523,3.4678
0.00561901,14.4898,3.47072
0.00562901,14.4563,3.47353
0.00563901,14.4227,3.47622
0.00564901,14.3889,3.47881
0.00565901,14.3549,3.48129
0.00566901,14.3207,3.48366
0.00567901,14.2862,3.48594
0.00568901,14.2516,3.48811
0.00569901,14.2168,3.4902
0.00570901,14.1817,3.49219
0.00571901,14.1465,3.49409
0.00572901,14.111,3.4959
0.00573901,14.0754,3.49763
0.00574901,14.0396,3.49928
0.00575901,14.0035,3.50085
0.00576901,13.9673,3.50234
0.00577901,13.9308,3.50376
0.00578901,13.8942,3.5051
0.00579901,13.8574,3.50638
0.00580901,13.8203,3.50759
0.00581901,13.7831,3.50873
0.00582901,13.7457,3.50981
0.00583901,13.7081,3.51082
0.00584901,13.6703,3.51178
0.00585901,13.6323,3.51268
0.00586901,13.5941,3.51352
0.00587901,13.5557,3.51431
0.00588901,13.5171,3.51504
0.00589901,13.4783,3.51573
0.00590901,13.4393,3.51636
0.00591901,13.4002,3.51695
0.00592901,13.3608,3.51749
0.00593901,13.3213,3.51798
0.00594901,13.2815,3.51843
0.00595901,13.2416,3.51884
0.00596901,13.2015,3.51921
0.00597901,13.1612,3.51954
0.00598901,13.1207,3.51983
0.00599901,13.0801,3.52008
0.00600901,13.0392,3.5203
0.00601901,12.9982,3.52048
0.00602901,12.9569,3.52062
0.00603901,12.9155,3.52074
0.00604901,12.8739,3.52082
0.00605901,12.8322,3.52087
0.00606901,12.7902,3.52089
0.00607901,12.7481,3.52089
0.00608901,12.7057,3.52085
0.00609901,12.6632,3.52079
0.00610901,12.6206,3.5207
0.00611901,12.5777,3.52058
0.00612901,12.5347,3.52044
0.00613901,12.4914,3.52027
0.00614901,12.448,3.52009
0.00615901,12.4045,3.51988
0.00616901,12.3607,3.51964
0.00617901,12.3168,3.51939
0.00618901,12.2727,3.51911
0.00619901,12.2284,3.51881
0.00620901,12.184,3.5185
0.00621901,12.1394,3.51816
0.00622901,12.0946,3.51781
0.00623901,12.0496,3.51744
0.00624901,12.0045,3.51705
0.00625901,11.9591,3.51664
0.00626901,11.9137,3.51622
0.00627901,11.868,3.51578
0.00628901,11.8222,3.51532
0.00629901,11.7762,3.51485
0.00630901,11.7301,3.51437
0.00631901,11.6838,3.51387
0.00632901,11.6373,3.51335
0.00633901,11.5906,3.51282
0.00634901,11.5438,3.51228
0.00635901,11.4968,3.51173
0.00636901,11.4497,3.51116
0.00637901,11.4024,3.51058
0.00638901,11.3549,3.50999
0.00639901,11.3073,3.50938
0.00640901,11.2595,3.50877
0.00641901,11.2116,3.50814
0.00642901,11.1635,3.5075
0.00643901,11.1152,3.50685
0.00644901,11.0668,3.50619
0.00645901,11.0182,3.50553
0.00646901,10.9694,3.50485
0.00647901,10.9206,3.50416
0.00648901,10.8715,3.50346
0.00649901,10.8223,3.50275
0.00650901,10.7729,3.50203
0.00651901,10.7234,3.5013
0.00652901,10.6738,3.50057
0.00653901,10.624,3.49982
0.00654901,10.574,3.49907
0.00655901,10.5239,3.49831
0.00656901,10.4736,3.49754
0.00657901,10.4232,3.49676
0.00658901,10.3726,3.49598
0.00659901,10.3219,3.49518
0.00660901,10.2711,3.49438
0.00661901,10.2201,3.49358
0.00662901,10.1689,3.49276
0.00663901,10.1176,3.49194
0.00664901,10.0662,3.49111
0.00665901,10.0146,3.49027
0.00666901,9.96289,3.48943
0.00667901,9.91103,3.48858
0.00668901,9.85902,3.48772
0.00669901,9.80688,3.48686
0.00670901,9.7546,3.48599
0.00671901,9.70217,3.48511
0.00672901,9.64961,3.48423
0.00673901,9.59692,3.48334
0.00674901,9.54408,3.48245
0.00675901,9.49111,3.48155
0.00676901,9.43801,3.48064
0.00677901,9.38477,3.47973
0.00678901,9.3314,3.47881
0.00679901,9.2779,3.47789
0.00680901,9.22426,3.47696
0.00681901,9.17049,3.47602
0.00682901,9.1166,3.47508
0.00683901,9.06257,3.47414
0.00684901,9.00842,3.47318
0.00685901,8.95413,3.47223
0.00686901,8.89972,3.47127
0.00687901,8.84518,3.4703
0.00688901,8.79052,3.46933
0.00689901,8.73573,3.46835
0.00690901,8.68082,3.46737
0.00691901,8.62578,3.46638
0.00692901,8.57063,3.46538
0.00693901,8.51535,3.46439
0.00694901,8.45995,3.46338
0.00695901,8.40442,3.46238
0.00696901,8.34878,3.46136
0.00697901,8.29302,3.46035
0.00698901,8.23715,3.45932
0.00699901,8.18115,3.4583
0.00700901,8.12504,3.45727
0.00701901,8.06882,3.45623
0.00702901,8.01248,3.45519
0.00703901,7.95602,3.45414
0.00704901,7.89945,3.45309
0.00705901,7.84277,3.45204
0.00706901,7.78598,3.45098
0.00707901,7.72908,3.44991
0.00708901,7.67207,3.44884
0.00709901,7.61495,3.44777
0.00710901,7.55772,3.44669
